/V1/PLUS (W=5e-06) X,/V1/PLUS (W=5e-06) Y,/V1/PLUS (W=1e-05) X,/V1/PLUS (W=1e-05) Y,/V1/PLUS (W=1.5e-05) X,/V1/PLUS (W=1.5e-05) Y,/V1/PLUS (W=2.5e-05) X,/V1/PLUS (W=2.5e-05) Y,/V1/PLUS (W=3e-05) X,/V1/PLUS (W=3e-05) Y,deriv(value(getData("/V1/PLUS" ?result "dc") "W" 3e-05)) X,deriv(value(getData("/V1/PLUS" ?result "dc") "W" 3e-05)) Y,/V1/PLUS (W=2e-05) X,/V1/PLUS (W=2e-05) Y
0,0.001050804424716266,0,0.002102756442877757,0,0.003154941082344308,0,0.005259188004406331,0,0.006311289630401142,0.002,-0.01706947222521182,0,0.004207075204988201
0.002,0.00104510819343853,0.002,0.002091371818975861,0.002,0.003137867909512107,0.002,0.005230737655581266,0.002,0.006277150685950719,0.004,-0.01705667556893119,0.002,0.004184313449112352
0.004,0.001039416374563469,0.004,0.002079995839539119,0.004,0.003120807617879607,0.004,0.005202308662578492,0.004,0.006243037334812856,0.006,-0.01704375308951176,0.004,0.004161568811654665
0.006,0.001033729010433501,0.006,0.002068628588782396,0.006,0.003103760333523419,0.006,0.005173901235188817,0.006,0.006208949828633833,0.008,-0.01703070360231825,0.006,0.004138841460549625
0.008,0.001028046143788977,0.008,0.002057270151714603,0.008,0.00308672618370806,0.008,0.005145515585178484,0.008,0.006174888421429196,0.01,-0.0170175259068925,0.008,0.004116131565313438
0.01,0.001022367817773463,0.01,0.002045920614149306,0.01,0.003069705296901873,0.01,0.005117151926315692,0.01,0.006140853369615411,0.012,-0.01700421878655326,0.01,0.00409343929706518
0.012,0.001016694075939132,0.012,0.002034580062715563,0.012,0.003052697802793258,0.012,0.005088810474397562,0.012,0.006106844932042305,0.014,-0.01699078100810122,0.012,0.004070764828548477
0.014,0.001011024962252252,0.014,0.002023248584868961,0.014,0.003035703832307193,0.014,0.005060491447277727,0.014,0.006072863370026102,0.016,-0.01697721132150722,0.014,0.004048108334153454
0.016,0.001005360521098783,0.016,0.002011926268902839,0.016,0.003018723517622098,0.016,0.005032195064894339,0.016,0.006038908947383088,0.018,-0.01696350845956702,0.016,0.004025469989939293
0.018,0.0009997007972900572,0.018,0.0020006132039598,0.018,0.003001756992186995,0.018,0.005003921549298752,0.018,0.006004981930463954,0.02,-0.01694967113755572,0.018,0.004002849973657088
0.02,0.0009940458360686271,0.02,0.001989309480043374,0.02,0.002984804390739071,0.02,0.004975671124684612,0.02,0.005971082588188842,0.02200000000000001,-0.01693569805293102,0.02,0.003980248464773174
0.02200000000000001,0.0009883956831141611,0.02200000000000001,0.001978015188029945,0.02200000000000001,0.002967865849321535,0.02200000000000001,0.004947444017417771,0.02200000000000001,0.00593721119208298,0.02400000000000001,-0.01692158788487405,0.02200000000000001,0.003957665644492993
0.02400000000000001,0.0009827503845494935,0.02400000000000001,0.001966730419680929,0.02400000000000001,0.002950941505301851,0.02400000000000001,0.004919240456066521,0.02400000000000001,0.005903368016313232,0.02600000000000001,-0.01690733929404644,0.02400000000000001,0.003935101695785365
0.02600000000000001,0.0009771099869467822,0.02600000000000001,0.001955455267655156,0.02600000000000001,0.002934031497390319,0.02600000000000001,0.004891060671432645,0.02600000000000001,0.005869553337725139,0.02800000000000001,-0.01689295092209812,0.02600000000000001,0.003912556803407341
0.02800000000000001,0.0009714745373337942,0.02800000000000001,0.001944189825521526,0.02800000000000001,0.002917135965659042,0.02800000000000001,0.004862904896582991,0.02800000000000001,0.005835767435880943,0.03000000000000001,-0.016878421391349,0.02800000000000001,0.003890031153929354
0.03000000000000001,0.0009658440832003026,0.03000000000000001,0.001932934187771922,0.03000000000000001,0.002900255051561307,0.03000000000000001,0.004834773366881696,0.03000000000000001,0.005802010593098245,0.03200000000000001,-0.01686374930440171,0.03000000000000001,0.003867524935761134
0.03200000000000001,0.0009602186725046232,0.03200000000000001,0.001921688449834362,0.03200000000000001,0.002883388897951297,0.03200000000000001,0.004806666320023122,0.03200000000000001,0.005768283094489441,0.03400000000000002,-0.01684893324371349,0.03200000000000001,0.003845038339177963
0.03400000000000002,0.0009545983536802733,0.03400000000000002,0.00191045270808643,0.03400000000000002,0.00286653764910421,0.03400000000000002,0.004778583996065409,0.03400000000000002,0.005734585228002014,0.03600000000000002,-0.01683397177113789,0.03400000000000002,0.003822571556347577
0.03600000000000002,0.000948983175642777,0.03600000000000002,0.001899227059868984,0.03600000000000002,0.002849701450736895,0.03600000000000002,0.004750526637464734,0.03600000000000002,0.005700917284459739,0.03800000000000002,-0.0168188634276328,0.03600000000000002,0.003800124781357532
0.03800000000000002,0.000943373187796585,0.03800000000000002,0.001888011603500136,0.03800000000000002,0.002832880450028732,0.03800000000000002,0.004722494489110258,0.03800000000000002,0.005667279557604473,0.04000000000000002,-0.01680360673266076,0.03800000000000002,0.003777698210243199
0.04000000000000002,0.000937768440042157,0.04000000000000002,0.001876806438289531,0.04000000000000002,0.002816074795643123,0.04000000000000002,0.004694487798359871,0.04000000000000002,0.005633672344139151,0.04200000000000002,-0.01678820018384887,0.04000000000000002,0.003755292041016313
0.04200000000000002,0.0009321689827831742,0.04200000000000002,0.001865611664552888,0.04200000000000002,0.002799284637749299,0.04200000000000002,0.004666506815076568,0.04200000000000002,0.005600095943771454,0.04400000000000003,-0.01677264225652439,0.04200000000000002,0.003732906473694108
0.04400000000000003,0.0009265748669339069,0.04400000000000003,0.001854427383626884,0.04400000000000003,0.00278251012804464,0.04400000000000003,0.004638551791665705,0.04400000000000003,0.005566550659258405,0.04600000000000003,-0.01675693140319125,0.04400000000000003,0.003710541710329085
0.04600000000000003,0.0009209861439267296,0.04600000000000003,0.001843253697884321,0.04600000000000003,0.002765751419777464,0.04600000000000003,0.004610622983112916,0.04600000000000003,0.005533036796452022,0.04800000000000003,-0.01674106605309074,0.04600000000000003,0.003688197955039374
0.04800000000000003,0.0009154028657197792,0.04800000000000003,0.00183209071074963,0.04800000000000003,0.002749008667770254,0.04800000000000003,0.004582720647022919,0.04800000000000003,0.005499554664345841,0.05000000000000003,-0.01672504461174049,0.04800000000000003,0.003665875414039762
0.05000000000000003,0.0009098250848048032,0.05000000000000003,0.001820938526714639,0.05000000000000003,0.002732282028443403,0.05000000000000003,0.004554845043659151,0.05000000000000003,0.00546610457512236,0.05200000000000003,-0.01670886546033776,0.05000000000000003,0.003643574295673319
0.05200000000000003,0.0009042528542151224,0.05200000000000003,0.001809797251354776,0.05200000000000003,0.002715571659839473,0.05200000000000003,0.004526996435984108,0.05200000000000003,0.005432686844201684,0.05400000000000003,-0.01669252695532139,0.05200000000000003,0.003621294810443811
0.05400000000000003,0.0008986862275338149,0.05400000000000003,0.001798666991345501,0.05400000000000003,0.002698877721647934,0.05400000000000003,0.004499175089700748,0.05400000000000003,0.005399301790291041,0.05600000000000004,-0.0166760274278128,0.05400000000000003,0.00359903717104867
0.05600000000000004,0.000893125258902014,0.05600000000000004,0.001787547854479174,0.05600000000000004,0.002682200375230431,0.05600000000000004,0.004471381273294582,0.05600000000000004,0.005365949735435416,0.05800000000000004,-0.01665936518307173,0.05600000000000004,0.003576801592412723
0.05800000000000004,0.000887570003027424,0.05800000000000004,0.001776439949682237,0.05800000000000004,0.002665539783646633,0.05800000000000004,0.004443615258076835,0.05800000000000004,0.005332631005069272,0.06000000000000004,-0.0166425384999641,0.05800000000000004,0.003554588291722658
0.06000000000000004,0.0008820205151929961,0.06000000000000004,0.001765343387032745,0.06000000000000004,0.002648896111680599,0.06000000000000004,0.004415877318228348,0.06000000000000004,0.005299345928069344,0.06200000000000004,-0.01662554563032621,0.06000000000000004,0.003532397488462205
0.06200000000000004,0.0008764768512657787,0.06200000000000004,0.001754258277778325,0.06200000000000004,0.002632269525867682,0.06200000000000004,0.004388167730844698,0.06200000000000004,0.005266094836808692,0.06400000000000004,-0.01660838479847778,0.06200000000000004,0.003510229404448135
0.06400000000000004,0.0008709390677059688,0.06400000000000004,0.001743184734354476,0.06400000000000004,0.002615660194522103,0.06400000000000004,0.004360486775981959,0.06400000000000004,0.005232878067211736,0.06600000000000004,-0.01659105420053363,0.06400000000000004,0.003488084263866894
0.06600000000000004,0.0008654072215761638,0.06600000000000004,0.001732122870403274,0.06600000000000004,0.002599068287764988,0.06600000000000004,0.004332834736703727,0.06600000000000004,0.005199695958810669,0.06800000000000005,-0.01657355200384212,0.06600000000000004,0.003465962293312162
0.06800000000000005,0.0008598813705507694,0.06800000000000005,0.00172107280079248,0.06800000000000005,0.002582493977553173,0.06800000000000005,0.004305211899129079,0.06800000000000005,0.005166548854802984,0.07000000000000005,-0.01655587634632939,0.06800000000000005,0.003443863721823237
0.07000000000000005,0.0008543615729256508,0.07000000000000005,0.001710034641635045,0.07000000000000005,0.002565937437708482,0.07000000000000005,0.004277618552481493,0.07000000000000005,0.005133437102110326,0.07200000000000005,-0.01653802533588222,0.07000000000000005,0.003421788780924117
0.07200000000000005,0.0008488478876279749,0.07200000000000005,0.001699008510309084,0.07200000000000005,0.002549398843947723,0.07200000000000005,0.004250054989138973,0.07200000000000005,0.005100361051438561,0.07400000000000005,-0.01651999704967804,0.07200000000000005,0.003399737704663568
0.07400000000000005,0.0008433403742262508,0.07400000000000005,0.00168799452547822,0.07400000000000005,0.00253287837391332,0.07400000000000005,0.00422252150468519,0.07400000000000005,0.005067321057339205,0.07600000000000005,-0.01650178953348234,0.07400000000000005,0.003377710729656033
0.07600000000000005,0.0008378390929406009,0.07600000000000005,0.001676992807112414,0.07600000000000005,0.002516376207204661,0.07600000000000005,0.004195018397961759,0.07600000000000005,0.00503431747827224,0.07800000000000006,-0.01648340080099294,0.07600000000000005,0.003355708095123382
0.07800000000000006,0.0008323441046532416,0.07800000000000006,0.001666003476509221,0.07800000000000006,0.002499892525410002,0.07800000000000006,0.004167545971121693,0.07800000000000006,0.005001350676670254,0.08000000000000006,-0.01646482883313004,0.07800000000000006,0.00333373004293768
0.08000000000000006,0.0008268554709192073,0.08000000000000006,0.001655026656315541,0.08000000000000006,0.002483427512139244,0.08000000000000006,0.004140104529684018,0.08000000000000006,0.004968421019003994,0.08200000000000006,-0.01644607157726215,0.08000000000000006,0.003311776817664791
0.08200000000000006,0.0008213732539772785,0.08200000000000006,0.001644062470549803,0.08200000000000006,0.002466981353057257,0.08200000000000006,0.004112694382589587,0.08200000000000006,0.00493552887584947,0.08400000000000006,-0.01642712694657331,0.08200000000000006,0.003289848666608998
0.08400000000000006,0.0008158975167611651,0.08400000000000006,0.00163311104462468,0.08400000000000006,0.002450554235918119,0.08400000000000006,0.004085315842258104,0.08400000000000006,0.004902674621956323,0.08600000000000006,-0.01640799281912591,0.08400000000000006,0.003267945839858642
0.08600000000000006,0.0008104283229109324,0.08600000000000006,0.001622172505370263,0.08600000000000006,0.002434146350599912,0.08600000000000006,0.004057969224646514,0.08600000000000006,0.004869858636318071,0.08800000000000006,-0.01638866703729734,0.08600000000000006,0.003246068590332669
0.08800000000000006,0.0008049657367846568,0.08800000000000006,0.00161124698105775,0.08800000000000006,0.002417757889140485,0.08800000000000006,0.00403065484930855,0.08800000000000006,0.004837081302243477,0.09000000000000007,-0.01636914740679034,0.08800000000000006,0.003224217173828335
0.09000000000000007,0.0007995098234703556,0.09000000000000007,0.001600334601423703,0.09000000000000007,0.002401389045773839,0.09000000000000007,0.004003373039455736,0.09000000000000007,0.004804343007429896,0.09200000000000007,-0.01634943169594864,0.09000000000000007,0.003202391849069837
0.09200000000000007,0.0007940606487981635,0.09200000000000007,0.00158943549769476,0.09200000000000007,0.002385040016967407,0.09200000000000007,0.003976124122019599,0.09200000000000007,0.004771644144037999,0.09400000000000007,-0.01632951763485449,0.09200000000000007,0.003180592877758149
0.09400000000000007,0.0007886182793527688,0.09400000000000007,0.001578549802612945,0.09400000000000007,0.002368711001460164,0.09400000000000007,0.00394890842771544,0.09400000000000007,0.00473898510876829,0.09600000000000007,-0.0163094029144977,0.09400000000000007,0.003158820524621863
0.09600000000000007,0.0007831827824861391,0.09600000000000007,0.001567677650461525,0.09600000000000007,0.002352402200301525,0.09600000000000007,0.003921726291107348,0.09600000000000007,0.004706366302939294,0.09800000000000007,-0.0162890851859226,0.09600000000000007,0.003137075057469236
0.09800000000000007,0.000777754226330504,0.09800000000000007,0.001556819177091426,0.09800000000000007,0.002336113816891174,0.09800000000000007,0.003894578050674843,0.09800000000000007,0.004673788132567449,0.1000000000000001,-0.01626856205928782,0.09800000000000007,0.00311535674724132
0.1000000000000001,0.0007723326798116202,0.1000000000000001,0.00154597451994825,0.1000000000000001,0.00231984605701971,0.1000000000000001,0.003867464048880821,0.1000000000000001,0.004641251008448873,0.1020000000000001,-0.01624783110299289,0.1000000000000001,0.003093665868066351
0.1020000000000001,0.0007669182126623551,0.1020000000000001,0.001535143818099859,0.1020000000000001,0.002303599128910247,0.1020000000000001,0.003840384632241162,0.1020000000000001,0.004608755346242888,0.1040000000000001,-0.01622688984276439,0.1020000000000001,0.003072002697315311
0.1040000000000001,0.0007615108954365223,0.1040000000000001,0.001524327212264584,0.1040000000000001,0.002287373243260888,0.1040000000000001,0.003813340151395787,0.1040000000000001,0.004576301566557359,0.1060000000000001,-0.01620573576060958,0.1040000000000001,0.003050367515658711
0.1060000000000001,0.000756110799523047,0.1060000000000001,0.001513524844840082,0.1060000000000001,0.002271168613288205,0.1060000000000001,0.003786330961181427,0.1060000000000001,0.00454389009503614,0.1080000000000001,-0.01618436629396371,0.1060000000000001,0.003028760607124644
0.1080000000000001,0.000750717997160434,0.1080000000000001,0.001502736859932765,0.1080000000000001,0.002254985454771625,0.1080000000000001,0.003759357420705831,0.1080000000000001,0.004511521362448212,0.1100000000000001,-0.01616277883461453,0.1080000000000001,0.003007182259158204
0.1100000000000001,0.0007453325614515491,0.1100000000000001,0.001491963403387947,0.1100000000000001,0.002238823986098836,0.1100000000000001,0.003732419893423781,0.1100000000000001,0.004479195804778983,0.1120000000000001,-0.01614097072769482,0.1100000000000001,0.002985632762682079
0.1120000000000001,0.0007399545663787176,0.1120000000000001,0.001481204622820597,0.1120000000000001,0.002222684428312149,0.1120000000000001,0.003705518747214744,0.1120000000000001,0.004446913863323593,0.1140000000000001,-0.01611893927068061,0.1120000000000001,0.002964112412158643
0.1140000000000001,0.0007345840868191585,0.1140000000000001,0.001470460667646813,0.1140000000000001,0.002206567005155963,0.1140000000000001,0.003678654354462262,0.1140000000000001,0.004414675984782232,0.1160000000000001,-0.0160966817122879,0.1140000000000001,0.002942621505653293
0.1160000000000001,0.0007292211985607403,0.1160000000000001,0.001459731689115957,0.1160000000000001,0.002190471943125217,0.1160000000000001,0.00365182709213506,0.1160000000000001,0.004382482621357656,0.1180000000000001,-0.01607419525140838,0.1160000000000001,0.002921160344899321
0.1180000000000001,0.0007238659783180978,0.1180000000000001,0.001449017840343506,0.1180000000000001,0.00217439947151493,0.1180000000000001,0.003625037341869993,0.1180000000000001,0.00435033423085484,0.1200000000000001,-0.01605147703604,0.1180000000000001,0.002899729235364101
0.1200000000000001,0.0007185185037490862,0.1200000000000001,0.001438319276344614,0.1200000000000001,0.002158349822470843,0.1200000000000001,0.003598285490056896,0.1200000000000001,0.00431823127678276,0.1220000000000001,-0.01602852416207133,0.1200000000000001,0.002878328486316824
0.1220000000000001,0.0007131788534715724,0.1220000000000001,0.001427636154068434,0.1220000000000001,0.002142323231041127,0.1220000000000001,0.003571571927925103,0.1220000000000001,0.004286174228458617,0.1240000000000001,-0.01600533367223125,0.1220000000000001,0.002856958410897664
0.1240000000000001,0.0007078471070806329,0.1240000000000001,0.001416968632433145,0.1240000000000001,0.002126319935229316,0.1240000000000001,0.003544897051632135,0.1240000000000001,0.004254163561114154,0.1260000000000001,-0.01598190255485602,0.1240000000000001,0.002835619326188517
0.1260000000000001,0.0007025233451660658,0.1260000000000001,0.001406316872361786,0.1260000000000001,0.002110340176048304,0.1260000000000001,0.003518261262354154,0.1260000000000001,0.004222199756004442,0.1280000000000001,-0.01595822774269616,0.1260000000000001,0.002814311553285279
0.1280000000000001,0.0006972076493303306,0.1280000000000001,0.001395681036818828,0.1280000000000001,0.002094384197575572,0.1280000000000001,0.003491664966378438,0.1280000000000001,0.00419028330051905,0.1300000000000001,-0.01593430611176179,0.1280000000000001,0.00279303541737167
0.1300000000000001,0.0006919001022068366,0.1300000000000001,0.001385061290847565,0.1300000000000001,0.002078452247009613,0.1300000000000001,0.003465108575197946,0.1300000000000001,0.004158414688295527,0.1320000000000001,-0.01591013447997884,0.1300000000000001,0.002771791247794721
0.1320000000000001,0.0006866007874786328,0.1320000000000001,0.001374457801608286,0.1320000000000001,0.002062544574727558,0.1320000000000001,0.00343859250560787,0.1320000000000001,0.004126594419335569,0.1340000000000001,-0.01588570960603298,0.1320000000000001,0.002750579378141906
0.1340000000000001,0.0006813097898974847,0.1340000000000001,0.001363870738417315,0.1340000000000001,0.002046661434344062,0.1340000000000001,0.003412117179804315,0.1340000000000001,0.004094823000123503,0.1360000000000001,-0.01586102818801814,0.1340000000000001,0.00272940014631983
0.1360000000000001,0.0006760271953033792,0.1360000000000001,0.001353300272786809,0.1360000000000001,0.002030803082771489,0.1360000000000001,0.003385683025485111,0.1360000000000001,0.004063100943747467,0.1380000000000001,-0.01583608686213463,0.1360000000000001,0.002708253894634827
0.1380000000000001,0.000670753090644414,0.1380000000000001,0.001342746578465483,0.1380000000000001,0.002014969780281306,0.1380000000000001,0.003359290475952755,0.1380000000000001,0.004031428770023197,0.1400000000000001,-0.01581088220140328,0.1380000000000001,0.002687140969875081
0.1400000000000001,0.000665487563997116,0.1400000000000001,0.00133220983148014,0.1400000000000001,0.001999161790566879,0.1400000000000001,0.003332939970219742,0.1400000000000001,0.003999807005620391,0.1420000000000001,-0.01578541071426286,0.1400000000000001,0.002666061723394618
0.1420000000000001,0.0006602307045871765,0.1420000000000001,0.001321690210178118,0.1420000000000001,0.001983379380807539,0.1420000000000001,0.003306631953115778,0.1420000000000001,0.003968236184191865,0.1440000000000001,-0.01575966884324397,0.1420000000000001,0.002645016511199118
